
T3638 000:503 SEGGER J-Link V4.80g Log File (0004ms, 0316ms total)
T3638 000:503 DLL Compiled: Feb 13 2014 20:50:02 (0004ms, 0316ms total)
T3638 000:503 Logging started @ 2020-08-04 19:45 (0004ms, 0316ms total)
T3638 000:507 JLINK_SetWarnOutHandler(...) (0000ms, 0316ms total)
T3638 000:507 JLINK_OpenEx(...)
Firmware: J-Link ARM-OB STM32 compiled Aug 22 2012 19:52:04
Hardware: V7.00
S/N: 20090928
Feature(s): RDI,FlashDL,FlashBP,JFlash,GDBFull  returns O.K. (0312ms, 0628ms total)
T3638 000:819 JLINK_SetErrorOutHandler(...) (0000ms, 0628ms total)
T3638 000:819 JLINK_ExecCommand("ProjectFile = "Y:\Documents\NasSync\TeamWork\ANO-Public\ANO_PioneerPro\JLinkSettings.ini"", ...)Device "UNSPECIFIED" selected (0 KB flash, 0 KB RAM).  returns 0x00 (0007ms, 0635ms total)
T3638 000:829 JLINK_ExecCommand("Device = STM32F407VGTx", ...)Device "UNSPECIFIED" selected (0 KB flash, 0 KB RAM).  returns 0x00 (0002ms, 0637ms total)
T3638 000:831 JLINK_ExecCommand("DisableConnectionTimeout", ...)  returns 0x01 (0000ms, 0637ms total)
T3638 000:831 JLINK_GetHardwareVersion()  returns 0x11170 (0000ms, 0637ms total)
T3638 000:831 JLINK_GetDLLVersion()  returns 48007 (0000ms, 0637ms total)
T3638 000:831 JLINK_GetFirmwareString(...) (0000ms, 0637ms total)
T3638 000:844 JLINK_GetDLLVersion()  returns 48007 (0000ms, 0637ms total)
T3638 000:844 JLINK_GetCompileDateTime() (0001ms, 0638ms total)
T3638 000:854 JLINK_GetFirmwareString(...) (0000ms, 0638ms total)
T3638 000:859 JLINK_GetHardwareVersion()  returns 0x11170 (0000ms, 0638ms total)
T3638 000:865 JLINK_TIF_Select(JLINKARM_TIF_SWD)  returns 0x00 (0010ms, 0648ms total)
T3638 000:875 JLINK_SetSpeed(10000) (0004ms, 0652ms total)
T3638 000:879 JLINK_GetId() >0x108 TIF>Found SWD-DP with ID 0x2BA01477 >0x0D TIF> >0x21 TIF> >0x0D TIF> >0x28 TIF> >0x0D TIF> >0x28 TIF> >0x0D TIF> >0x21 TIF> >0x0D TIF> >0x28 TIF> >0x0D TIF> >0x21 TIF> >0x0D TIF> >0x21 TIF> >0x0D TIF> >0x21 TIF> >0x0D TIF> >0x21 TIF> >0x0D TIF> >0x28 TIF> >0x0D TIF> >0x28 TIF> >0x0D TIF> >0x21 TIF> >0x0D TIF> >0x28 TIF> >0x0D TIF> >0x28 TIF> >0x0D TIF> >0x28 TIF> >0x0D TIF> >0x21 TIF> >0x0D TIF> >0x21 TIF> >0x0D TIF> >0x28 TIF> >0x0D TIF> >0x21 TIF> >0x0D TIF>
 >0x21 TIF>Found Cortex-M4 r0p1, Little endian. -- CPU_WriteMem(4 bytes @ 0xE0002000) -- CPU_ReadMem(4 bytes @ 0xE000EDF0) -- CPU_WriteMem(4 bytes @ 0xE000EDF0) -- CPU_ReadMem(4 bytes @ 0xE0002000)FPUnit: 6 code (BP) slots and 2 literal slots -- CPU_ReadMem(4 bytes @ 0xE000EDFC) -- CPU_WriteMem(4 bytes @ 0xE000EDFC) -- CPU_ReadMem(4 bytes @ 0xE0001000) -- CPU_WriteMem(4 bytes @ 0xE0001000) -- CPU_ReadMem(4 bytes @ 0xE00FF010)TPIU fitted. -- CPU_ReadMem(4 bytes @ 0xE00FF014)ETM fitted.
 -- CPU_ReadMem(4 bytes @ 0xE00FF018) >0x0D TIF> >0x21 TIF>  returns 0x2BA01477 (0258ms, 0910ms total)
T3638 001:137 JLINK_GetDeviceFamily()  returns 14 (0000ms, 0910ms total)
T3638 001:140 JLINK_ReadMem (0xE00FFFF0, 0x0010 Bytes, ...) -- CPU is running -- CPU_ReadMem(16 bytes @ 0xE00FFFF0) -- Data:  0D 00 00 00 10 00 00 00 05 00 00 00 B1 00 00 00  returns 0x00 (0009ms, 0919ms total)
T3638 001:149 JLINK_ReadMem (0xE00FFFD0, 0x0020 Bytes, ...) -- CPU is running -- CPU_ReadMem(32 bytes @ 0xE00FFFD0) -- Data:  00 00 00 00 00 00 00 00 00 00 00 00 00 00 00 00 ...  returns 0x00 (0005ms, 0924ms total)
T3638 001:154 JLINK_ReadMem (0xE00FF000, 0x0018 Bytes, ...) -- CPU is running -- CPU_ReadMem(24 bytes @ 0xE00FF000) -- Data:  03 F0 F0 FF 03 20 F0 FF 03 30 F0 FF 03 10 F0 FF ...  returns 0x00 (0005ms, 0929ms total)
T3638 001:159 JLINK_ReadMemU32(0xE000ED00, 0x0001 Items, ...) -- CPU is running -- CPU_ReadMem(4 bytes @ 0xE000ED00) -- Data:  41 C2 0F 41  returns 0x01 (0005ms, 0934ms total)
T3638 001:164 JLINK_ReadMemU32(0xE000EF40, 0x0001 Items, ...) -- CPU is running -- CPU_ReadMem(4 bytes @ 0xE000EF40) -- Data:  21 00 11 10  returns 0x01 (0004ms, 0938ms total)
T3638 001:168 JLINK_ReadMemU32(0xE000EF44, 0x0001 Items, ...) -- CPU is running -- CPU_ReadMem(4 bytes @ 0xE000EF44) -- Data:  11 00 00 11  returns 0x01 (0003ms, 0941ms total)
T3638 001:171 JLINK_SetResetType(JLINKARM_RESET_TYPE_NORMAL)  returns JLINKARM_RESET_TYPE_NORMAL (0000ms, 0941ms total)
T3638 001:171 JLINK_Reset() -- CPU is running -- CPU_WriteMem(4 bytes @ 0xE000EDF0) -- CPU is running -- CPU_WriteMem(4 bytes @ 0xE000EDFC) >0x35 TIF> -- CPU is running -- CPU_WriteMem(4 bytes @ 0xE000ED0C) -- CPU is running -- CPU_ReadMem(4 bytes @ 0xE000EDF0) -- CPU is running -- CPU_ReadMem(4 bytes @ 0xE000EDF0) -- CPU is running -- CPU_WriteMem(4 bytes @ 0xE000EDF0) -- CPU is running -- CPU_WriteMem(4 bytes @ 0xE000EDFC) -- CPU is running -- CPU_ReadMem(4 bytes @ 0xE000EDF0)
 -- CPU_WriteMem(4 bytes @ 0xE0002000) -- CPU_ReadMem(4 bytes @ 0xE000EDFC) -- CPU_ReadMem(4 bytes @ 0xE0001000) (0072ms, 1013ms total)
T3638 001:243 JLINK_Halt()  returns 0x00 (0000ms, 1013ms total)
T3638 001:243 JLINK_IsHalted()  returns TRUE (0000ms, 1013ms total)
T3638 001:243 JLINK_ReadMemU32(0xE000EDF0, 0x0001 Items, ...) -- CPU_ReadMem(4 bytes @ 0xE000EDF0) -- Data:  03 00 03 00  returns 0x01 (0006ms, 1019ms total)
T3638 001:249 JLINK_WriteU32(0xE000EDF0, 0xA05F0003) -- CPU_WriteMem(4 bytes @ 0xE000EDF0)  returns 0x00 (0005ms, 1024ms total)
T3638 001:254 JLINK_WriteU32(0xE000EDFC, 0x01000000) -- CPU_WriteMem(4 bytes @ 0xE000EDFC)  returns 0x00 (0005ms, 1029ms total)
T3638 001:265 JLINK_GetHWStatus(...)  returns 0x00 (0005ms, 1034ms total)
T3638 001:273 JLINK_GetNumBPUnits(Type = 0xFFFFFF00)  returns 0x06 (0000ms, 1034ms total)
T3638 001:273 JLINK_GetNumBPUnits(Type = 0xF0)  returns 0x2000 (0000ms, 1034ms total)
T3638 001:273 JLINK_GetNumWPUnits()  returns 0x04 (0000ms, 1034ms total)
T3638 001:280 JLINK_GetSpeed()  returns 0xFA0 (0000ms, 1034ms total)
T3638 001:283 JLINK_ReadMemU32(0xE000E004, 0x0001 Items, ...) -- CPU_ReadMem(4 bytes @ 0xE000E004) -- Data:  02 00 00 00  returns 0x01 (0005ms, 1039ms total)
T3638 001:288 JLINK_ReadMemU32(0xE000E004, 0x0001 Items, ...) -- CPU_ReadMem(4 bytes @ 0xE000E004) -- Data:  02 00 00 00  returns 0x01 (0005ms, 1044ms total)
T3638 001:293 JLINK_WriteMem(0xE0001000, 0x001C Bytes, ...) -- Data:  01 00 00 00 00 00 00 00 00 00 00 00 00 00 00 00 ... -- CPU_WriteMem(28 bytes @ 0xE0001000)  returns 0x1C (0005ms, 1049ms total)
T3638 001:298 JLINK_ReadMem (0xE0001000, 0x001C Bytes, ...) -- CPU_ReadMem(28 bytes @ 0xE0001000) -- Data:  01 00 00 40 00 00 00 00 00 00 00 00 00 00 00 00 ...  returns 0x00 (0005ms, 1054ms total)
T3638 001:303 JLINK_Halt()  returns 0x00 (0000ms, 1054ms total)
T3638 001:303 JLINK_IsHalted()  returns TRUE (0000ms, 1054ms total)
T3638 001:311 JLINK_WriteMem(0x20000000, 0x0180 Bytes, ...) -- Data:  00 BE 0A E0 0D 78 2D 06 68 40 08 24 40 00 00 D3 ... -- CPU_WriteMem(384 bytes @ 0x20000000)  returns 0x180 (0008ms, 1062ms total)
T3638 001:319 JLINK_WriteReg(R0, 0x08000000)  returns 0x00 (0000ms, 1062ms total)
T3638 001:319 JLINK_WriteReg(R1, 0x0A037A00)  returns 0x00 (0000ms, 1062ms total)
T3638 001:319 JLINK_WriteReg(R2, 0x00000001)  returns 0x00 (0000ms, 1062ms total)
T3638 001:319 JLINK_WriteReg(R3, 0x00000000)  returns 0x00 (0000ms, 1062ms total)
T3638 001:319 JLINK_WriteReg(R4, 0x00000000)  returns 0x00 (0001ms, 1063ms total)
T3638 001:320 JLINK_WriteReg(R5, 0x00000000)  returns 0x00 (0000ms, 1063ms total)
T3638 001:320 JLINK_WriteReg(R6, 0x00000000)  returns 0x00 (0000ms, 1063ms total)
T3638 001:320 JLINK_WriteReg(R7, 0x00000000)  returns 0x00 (0000ms, 1063ms total)
T3638 001:321 JLINK_WriteReg(R8, 0x00000000)  returns 0x00 (0000ms, 1064ms total)
T3638 001:321 JLINK_WriteReg(R9, 0x2000017C)  returns 0x00 (0000ms, 1064ms total)
T3638 001:321 JLINK_WriteReg(R10, 0x00000000)  returns 0x00 (0000ms, 1064ms total)
T3638 001:321 JLINK_WriteReg(R11, 0x00000000)  returns 0x00 (0001ms, 1065ms total)
T3638 001:322 JLINK_WriteReg(R12, 0x00000000)  returns 0x00 (0000ms, 1065ms total)
T3638 001:322 JLINK_WriteReg(R13 (SP), 0x20000800)  returns 0x00 (0000ms, 1065ms total)
T3638 001:322 JLINK_WriteReg(R14, 0x20000001)  returns 0x00 (0001ms, 1066ms total)
T3638 001:323 JLINK_WriteReg(R15 (PC), 0x20000054)  returns 0x00 (0000ms, 1066ms total)
T3638 001:323 JLINK_WriteReg(XPSR, 0x01000000)  returns 0x00 (0000ms, 1066ms total)
T3638 001:323 JLINK_WriteReg(MSP, 0x20000800)  returns 0x00 (0001ms, 1067ms total)
T3638 001:324 JLINK_WriteReg(PSP, 0x20000800)  returns 0x00 (0000ms, 1067ms total)
T3638 001:324 JLINK_WriteReg(CFBP, 0x00000000)  returns 0x00 (0000ms, 1067ms total)
T3638 001:324 JLINK_SetBPEx(Addr = 0x20000000, Type = 0xFFFFFFF2) -- CPU_ReadMem(4 bytes @ 0x20000000) -- CPU_WriteMem(4 bytes @ 0x20000000) -- CPU_ReadMem(4 bytes @ 0x20000000) -- CPU_WriteMem(4 bytes @ 0x20000000) -- CPU_ReadMem(2 bytes @ 0x20000000)  returns 0x00000001 (0023ms, 1090ms total)
T3638 001:347 JLINK_Go() -- CPU_WriteMem(2 bytes @ 0x20000000) -- CPU_WriteMem(4 bytes @ 0xE0002008) -- CPU_WriteMem(4 bytes @ 0xE000200C) -- CPU_WriteMem(4 bytes @ 0xE0002010) -- CPU_WriteMem(4 bytes @ 0xE0002014) -- CPU_WriteMem(4 bytes @ 0xE0002018) -- CPU_WriteMem(4 bytes @ 0xE000201C) -- CPU_WriteMem(4 bytes @ 0xE0001004) (0043ms, 1133ms total)
T3638 001:390 JLINK_IsHalted() -- CPU_ReadMem(2 bytes @ 0x20000000)  returns TRUE (0015ms, 1148ms total)
T3638 001:405 JLINK_ReadReg(R15 (PC))  returns 0x20000000 (0000ms, 1133ms total)
T3638 001:405 JLINK_ClrBPEx(BPHandle = 0x00000001)  returns 0x00 (0000ms, 1133ms total)
T3638 001:405 JLINK_ReadReg(R0)  returns 0x00000000 (0001ms, 1134ms total)
T3638 001:406 JLINK_WriteReg(R0, 0x08000000)  returns 0x00 (0000ms, 1134ms total)
T3638 001:406 JLINK_WriteReg(R1, 0x00004000)  returns 0x00 (0001ms, 1135ms total)
T3638 001:407 JLINK_WriteReg(R2, 0x000000FF)  returns 0x00 (0000ms, 1135ms total)
T3638 001:407 JLINK_WriteReg(R3, 0x00000000)  returns 0x00 (0000ms, 1135ms total)
T3638 001:407 JLINK_WriteReg(R4, 0x00000000)  returns 0x00 (0000ms, 1135ms total)
T3638 001:408 JLINK_WriteReg(R5, 0x00000000)  returns 0x00 (0000ms, 1136ms total)
T3638 001:408 JLINK_WriteReg(R6, 0x00000000)  returns 0x00 (0000ms, 1136ms total)
T3638 001:408 JLINK_WriteReg(R7, 0x00000000)  returns 0x00 (0000ms, 1136ms total)
T3638 001:408 JLINK_WriteReg(R8, 0x00000000)  returns 0x00 (0001ms, 1137ms total)
T3638 001:409 JLINK_WriteReg(R9, 0x2000017C)  returns 0x00 (0000ms, 1137ms total)
T3638 001:409 JLINK_WriteReg(R10, 0x00000000)  returns 0x00 (0000ms, 1137ms total)
T3638 001:409 JLINK_WriteReg(R11, 0x00000000)  returns 0x00 (0000ms, 1137ms total)
T3638 001:409 JLINK_WriteReg(R12, 0x00000000)  returns 0x00 (0001ms, 1138ms total)
T3638 001:410 JLINK_WriteReg(R13 (SP), 0x20000800)  returns 0x00 (0000ms, 1138ms total)
T3638 001:410 JLINK_WriteReg(R14, 0x20000001)  returns 0x00 (0000ms, 1138ms total)
T3638 001:410 JLINK_WriteReg(R15 (PC), 0x20000020)  returns 0x00 (0000ms, 1138ms total)
T3638 001:410 JLINK_WriteReg(XPSR, 0x01000000)  returns 0x00 (0001ms, 1139ms total)
T3638 001:411 JLINK_WriteReg(MSP, 0x20000800)  returns 0x00 (0000ms, 1139ms total)
T3638 001:411 JLINK_WriteReg(PSP, 0x20000800)  returns 0x00 (0000ms, 1139ms total)
T3638 001:411 JLINK_WriteReg(CFBP, 0x00000000)  returns 0x00 (0000ms, 1139ms total)
T3638 001:412 JLINK_SetBPEx(Addr = 0x20000000, Type = 0xFFFFFFF2)  returns 0x00000002 (0000ms, 1139ms total)
T3638 001:412 JLINK_Go() (0009ms, 1148ms total)
T3638 001:421 JLINK_IsHalted()  returns FALSE (0003ms, 1151ms total)
T3638 001:476 JLINK_IsHalted() -- CPU_ReadMem(2 bytes @ 0x20000000)  returns TRUE (0012ms, 1160ms total)
T3638 001:488 JLINK_ReadReg(R15 (PC))  returns 0x20000000 (0000ms, 1148ms total)
T3638 001:488 JLINK_ClrBPEx(BPHandle = 0x00000002)  returns 0x00 (0000ms, 1148ms total)
T3638 001:488 JLINK_ReadReg(R0)  returns 0x00000000 (0001ms, 1149ms total)
T3638 001:489 JLINK_WriteReg(R0, 0x08004000)  returns 0x00 (0001ms, 1150ms total)
T3638 001:490 JLINK_WriteReg(R1, 0x00004000)  returns 0x00 (0000ms, 1150ms total)
T3638 001:490 JLINK_WriteReg(R2, 0x000000FF)  returns 0x00 (0000ms, 1150ms total)
T3638 001:490 JLINK_WriteReg(R3, 0x00000000)  returns 0x00 (0000ms, 1150ms total)
T3638 001:490 JLINK_WriteReg(R4, 0x00000000)  returns 0x00 (0001ms, 1151ms total)
T3638 001:491 JLINK_WriteReg(R5, 0x00000000)  returns 0x00 (0000ms, 1151ms total)
T3638 001:491 JLINK_WriteReg(R6, 0x00000000)  returns 0x00 (0000ms, 1151ms total)
T3638 001:491 JLINK_WriteReg(R7, 0x00000000)  returns 0x00 (0000ms, 1151ms total)
T3638 001:492 JLINK_WriteReg(R8, 0x00000000)  returns 0x00 (0000ms, 1152ms total)
T3638 001:492 JLINK_WriteReg(R9, 0x2000017C)  returns 0x00 (0000ms, 1152ms total)
T3638 001:492 JLINK_WriteReg(R10, 0x00000000)  returns 0x00 (0000ms, 1152ms total)
T3638 001:492 JLINK_WriteReg(R11, 0x00000000)  returns 0x00 (0000ms, 1152ms total)
T3638 001:493 JLINK_WriteReg(R12, 0x00000000)  returns 0x00 (0000ms, 1153ms total)
T3638 001:493 JLINK_WriteReg(R13 (SP), 0x20000800)  returns 0x00 (0000ms, 1153ms total)
T3638 001:493 JLINK_WriteReg(R14, 0x20000001)  returns 0x00 (0000ms, 1153ms total)
T3638 001:493 JLINK_WriteReg(R15 (PC), 0x20000020)  returns 0x00 (0000ms, 1153ms total)
T3638 001:494 JLINK_WriteReg(XPSR, 0x01000000)  returns 0x00 (0000ms, 1154ms total)
T3638 001:494 JLINK_WriteReg(MSP, 0x20000800)  returns 0x00 (0000ms, 1154ms total)
T3638 001:494 JLINK_WriteReg(PSP, 0x20000800)  returns 0x00 (0000ms, 1154ms total)
T3638 001:494 JLINK_WriteReg(CFBP, 0x00000000)  returns 0x00 (0001ms, 1155ms total)
T3638 001:495 JLINK_SetBPEx(Addr = 0x20000000, Type = 0xFFFFFFF2)  returns 0x00000003 (0000ms, 1155ms total)
T3638 001:495 JLINK_Go() (0009ms, 1164ms total)
T3638 001:504 JLINK_IsHalted()  returns FALSE (0005ms, 1169ms total)
T3638 001:511 JLINK_IsHalted()  returns FALSE (0004ms, 1168ms total)
T3638 001:517 JLINK_IsHalted() -- CPU_ReadMem(2 bytes @ 0x20000000)  returns TRUE (0015ms, 1179ms total)
T3638 001:532 JLINK_ReadReg(R15 (PC))  returns 0x20000000 (0000ms, 1164ms total)
T3638 001:532 JLINK_ClrBPEx(BPHandle = 0x00000003)  returns 0x00 (0000ms, 1164ms total)
T3638 001:532 JLINK_ReadReg(R0)  returns 0x00000000 (0000ms, 1164ms total)
T3638 001:532 JLINK_WriteReg(R0, 0x08008000)  returns 0x00 (0001ms, 1165ms total)
T3638 001:533 JLINK_WriteReg(R1, 0x00004000)  returns 0x00 (0000ms, 1165ms total)
T3638 001:533 JLINK_WriteReg(R2, 0x000000FF)  returns 0x00 (0000ms, 1165ms total)
T3638 001:533 JLINK_WriteReg(R3, 0x00000000)  returns 0x00 (0001ms, 1166ms total)
T3638 001:534 JLINK_WriteReg(R4, 0x00000000)  returns 0x00 (0000ms, 1166ms total)
T3638 001:534 JLINK_WriteReg(R5, 0x00000000)  returns 0x00 (0000ms, 1166ms total)
T3638 001:534 JLINK_WriteReg(R6, 0x00000000)  returns 0x00 (0000ms, 1166ms total)
T3638 001:534 JLINK_WriteReg(R7, 0x00000000)  returns 0x00 (0001ms, 1167ms total)
T3638 001:535 JLINK_WriteReg(R8, 0x00000000)  returns 0x00 (0000ms, 1167ms total)
T3638 001:535 JLINK_WriteReg(R9, 0x2000017C)  returns 0x00 (0000ms, 1167ms total)
T3638 001:535 JLINK_WriteReg(R10, 0x00000000)  returns 0x00 (0000ms, 1167ms total)
T3638 001:536 JLINK_WriteReg(R11, 0x00000000)  returns 0x00 (0000ms, 1168ms total)
T3638 001:536 JLINK_WriteReg(R12, 0x00000000)  returns 0x00 (0000ms, 1168ms total)
T3638 001:536 JLINK_WriteReg(R13 (SP), 0x20000800)  returns 0x00 (0000ms, 1168ms total)
T3638 001:536 JLINK_WriteReg(R14, 0x20000001)  returns 0x00 (0001ms, 1169ms total)
T3638 001:537 JLINK_WriteReg(R15 (PC), 0x20000020)  returns 0x00 (0000ms, 1169ms total)
T3638 001:537 JLINK_WriteReg(XPSR, 0x01000000)  returns 0x00 (0000ms, 1169ms total)
T3638 001:537 JLINK_WriteReg(MSP, 0x20000800)  returns 0x00 (0000ms, 1169ms total)
T3638 001:537 JLINK_WriteReg(PSP, 0x20000800)  returns 0x00 (0001ms, 1170ms total)
T3638 001:538 JLINK_WriteReg(CFBP, 0x00000000)  returns 0x00 (0000ms, 1170ms total)
T3638 001:538 JLINK_SetBPEx(Addr = 0x20000000, Type = 0xFFFFFFF2)  returns 0x00000004 (0000ms, 1170ms total)
T3638 001:538 JLINK_Go() (0008ms, 1178ms total)
T3638 001:546 JLINK_IsHalted()  returns FALSE (0005ms, 1183ms total)
T3638 001:554 JLINK_IsHalted()  returns FALSE (0005ms, 1183ms total)
T3638 001:563 JLINK_IsHalted() -- CPU_ReadMem(2 bytes @ 0x20000000)  returns TRUE (0014ms, 1192ms total)
T3638 001:577 JLINK_ReadReg(R15 (PC))  returns 0x20000000 (0000ms, 1178ms total)
T3638 001:577 JLINK_ClrBPEx(BPHandle = 0x00000004)  returns 0x00 (0000ms, 1178ms total)
T3638 001:577 JLINK_ReadReg(R0)  returns 0x00000000 (0000ms, 1178ms total)
T3638 001:578 JLINK_WriteReg(R0, 0x0800C000)  returns 0x00 (0000ms, 1178ms total)
T3638 001:578 JLINK_WriteReg(R1, 0x00004000)  returns 0x00 (0000ms, 1178ms total)
T3638 001:578 JLINK_WriteReg(R2, 0x000000FF)  returns 0x00 (0001ms, 1179ms total)
T3638 001:579 JLINK_WriteReg(R3, 0x00000000)  returns 0x00 (0000ms, 1179ms total)
T3638 001:579 JLINK_WriteReg(R4, 0x00000000)  returns 0x00 (0000ms, 1179ms total)
T3638 001:579 JLINK_WriteReg(R5, 0x00000000)  returns 0x00 (0001ms, 1180ms total)
T3638 001:580 JLINK_WriteReg(R6, 0x00000000)  returns 0x00 (0000ms, 1180ms total)
T3638 001:580 JLINK_WriteReg(R7, 0x00000000)  returns 0x00 (0000ms, 1180ms total)
T3638 001:580 JLINK_WriteReg(R8, 0x00000000)  returns 0x00 (0000ms, 1180ms total)
T3638 001:580 JLINK_WriteReg(R9, 0x2000017C)  returns 0x00 (0001ms, 1181ms total)
T3638 001:581 JLINK_WriteReg(R10, 0x00000000)  returns 0x00 (0000ms, 1181ms total)
T3638 001:581 JLINK_WriteReg(R11, 0x00000000)  returns 0x00 (0000ms, 1181ms total)
T3638 001:581 JLINK_WriteReg(R12, 0x00000000)  returns 0x00 (0001ms, 1182ms total)
T3638 001:582 JLINK_WriteReg(R13 (SP), 0x20000800)  returns 0x00 (0000ms, 1182ms total)
T3638 001:582 JLINK_WriteReg(R14, 0x20000001)  returns 0x00 (0000ms, 1182ms total)
T3638 001:582 JLINK_WriteReg(R15 (PC), 0x20000020)  returns 0x00 (0000ms, 1182ms total)
T3638 001:582 JLINK_WriteReg(XPSR, 0x01000000)  returns 0x00 (0001ms, 1183ms total)
T3638 001:583 JLINK_WriteReg(MSP, 0x20000800)  returns 0x00 (0000ms, 1183ms total)
T3638 001:583 JLINK_WriteReg(PSP, 0x20000800)  returns 0x00 (0000ms, 1183ms total)
T3638 001:583 JLINK_WriteReg(CFBP, 0x00000000)  returns 0x00 (0000ms, 1183ms total)
T3638 001:583 JLINK_SetBPEx(Addr = 0x20000000, Type = 0xFFFFFFF2)  returns 0x00000005 (0001ms, 1184ms total)
T3638 001:584 JLINK_Go() (0010ms, 1194ms total)
T3638 001:594 JLINK_IsHalted()  returns FALSE (0004ms, 1198ms total)
T3638 001:601 JLINK_IsHalted()  returns FALSE (0005ms, 1199ms total)
T3638 001:608 JLINK_IsHalted() -- CPU_ReadMem(2 bytes @ 0x20000000)  returns TRUE (0013ms, 1207ms total)
T3638 001:621 JLINK_ReadReg(R15 (PC))  returns 0x20000000 (0000ms, 1194ms total)
T3638 001:621 JLINK_ClrBPEx(BPHandle = 0x00000005)  returns 0x00 (0000ms, 1194ms total)
T3638 001:621 JLINK_ReadReg(R0)  returns 0x00000000 (0000ms, 1194ms total)
T3638 001:622 JLINK_WriteReg(R0, 0x08010000)  returns 0x00 (0000ms, 1194ms total)
T3638 001:622 JLINK_WriteReg(R1, 0x00010000)  returns 0x00 (0000ms, 1194ms total)
T3638 001:622 JLINK_WriteReg(R2, 0x000000FF)  returns 0x00 (0001ms, 1195ms total)
T3638 001:623 JLINK_WriteReg(R3, 0x00000000)  returns 0x00 (0000ms, 1195ms total)
T3638 001:623 JLINK_WriteReg(R4, 0x00000000)  returns 0x00 (0000ms, 1195ms total)
T3638 001:623 JLINK_WriteReg(R5, 0x00000000)  returns 0x00 (0000ms, 1195ms total)
T3638 001:623 JLINK_WriteReg(R6, 0x00000000)  returns 0x00 (0001ms, 1196ms total)
T3638 001:624 JLINK_WriteReg(R7, 0x00000000)  returns 0x00 (0000ms, 1196ms total)
T3638 001:624 JLINK_WriteReg(R8, 0x00000000)  returns 0x00 (0000ms, 1196ms total)
T3638 001:624 JLINK_WriteReg(R9, 0x2000017C)  returns 0x00 (0000ms, 1196ms total)
T3638 001:624 JLINK_WriteReg(R10, 0x00000000)  returns 0x00 (0001ms, 1197ms total)
T3638 001:625 JLINK_WriteReg(R11, 0x00000000)  returns 0x00 (0000ms, 1197ms total)
T3638 001:625 JLINK_WriteReg(R12, 0x00000000)  returns 0x00 (0000ms, 1197ms total)
T3638 001:625 JLINK_WriteReg(R13 (SP), 0x20000800)  returns 0x00 (0000ms, 1197ms total)
T3638 001:625 JLINK_WriteReg(R14, 0x20000001)  returns 0x00 (0001ms, 1198ms total)
T3638 001:626 JLINK_WriteReg(R15 (PC), 0x20000020)  returns 0x00 (0000ms, 1198ms total)
T3638 001:626 JLINK_WriteReg(XPSR, 0x01000000)  returns 0x00 (0000ms, 1198ms total)
T3638 001:626 JLINK_WriteReg(MSP, 0x20000800)  returns 0x00 (0000ms, 1198ms total)
T3638 001:626 JLINK_WriteReg(PSP, 0x20000800)  returns 0x00 (0001ms, 1199ms total)
T3638 001:627 JLINK_WriteReg(CFBP, 0x00000000)  returns 0x00 (0000ms, 1199ms total)
T3638 001:627 JLINK_SetBPEx(Addr = 0x20000000, Type = 0xFFFFFFF2)  returns 0x00000006 (0000ms, 1199ms total)
T3638 001:627 JLINK_Go() (0011ms, 1210ms total)
T3638 001:638 JLINK_IsHalted()  returns FALSE (0005ms, 1215ms total)
T3638 001:645 JLINK_IsHalted()  returns FALSE (0005ms, 1215ms total)
T3638 001:654 JLINK_IsHalted()  returns FALSE (0004ms, 1214ms total)
T3638 001:660 JLINK_IsHalted()  returns FALSE (0004ms, 1214ms total)
T3638 001:666 JLINK_IsHalted()  returns FALSE (0005ms, 1215ms total)
T3638 001:673 JLINK_IsHalted()  returns FALSE (0005ms, 1215ms total)
T3638 001:680 JLINK_IsHalted()  returns FALSE (0005ms, 1215ms total)
T3638 001:687 JLINK_IsHalted()  returns FALSE (0004ms, 1214ms total)
T3638 001:693 JLINK_IsHalted() -- CPU_ReadMem(2 bytes @ 0x20000000)  returns TRUE (0014ms, 1224ms total)
T3638 001:707 JLINK_ReadReg(R15 (PC))  returns 0x20000000 (0000ms, 1210ms total)
T3638 001:707 JLINK_ClrBPEx(BPHandle = 0x00000006)  returns 0x00 (0000ms, 1210ms total)
T3638 001:707 JLINK_ReadReg(R0)  returns 0x00000000 (0000ms, 1210ms total)
T3638 001:707 JLINK_WriteReg(R0, 0x00000001)  returns 0x00 (0001ms, 1211ms total)
T3638 001:708 JLINK_WriteReg(R1, 0x00010000)  returns 0x00 (0000ms, 1211ms total)
T3638 001:708 JLINK_WriteReg(R2, 0x000000FF)  returns 0x00 (0000ms, 1211ms total)
T3638 001:708 JLINK_WriteReg(R3, 0x00000000)  returns 0x00 (0000ms, 1211ms total)
T3638 001:708 JLINK_WriteReg(R4, 0x00000000)  returns 0x00 (0001ms, 1212ms total)
T3638 001:709 JLINK_WriteReg(R5, 0x00000000)  returns 0x00 (0000ms, 1212ms total)
T3638 001:709 JLINK_WriteReg(R6, 0x00000000)  returns 0x00 (0000ms, 1212ms total)
T3638 001:709 JLINK_WriteReg(R7, 0x00000000)  returns 0x00 (0000ms, 1212ms total)
T3638 001:710 JLINK_WriteReg(R8, 0x00000000)  returns 0x00 (0000ms, 1213ms total)
T3638 001:710 JLINK_WriteReg(R9, 0x2000017C)  returns 0x00 (0000ms, 1213ms total)
T3638 001:710 JLINK_WriteReg(R10, 0x00000000)  returns 0x00 (0000ms, 1213ms total)
T3638 001:710 JLINK_WriteReg(R11, 0x00000000)  returns 0x00 (0000ms, 1213ms total)
T3638 001:711 JLINK_WriteReg(R12, 0x00000000)  returns 0x00 (0000ms, 1214ms total)
T3638 001:711 JLINK_WriteReg(R13 (SP), 0x20000800)  returns 0x00 (0000ms, 1214ms total)
T3638 001:711 JLINK_WriteReg(R14, 0x20000001)  returns 0x00 (0000ms, 1214ms total)
T3638 001:711 JLINK_WriteReg(R15 (PC), 0x20000082)  returns 0x00 (0000ms, 1214ms total)
T3638 001:712 JLINK_WriteReg(XPSR, 0x01000000)  returns 0x00 (0000ms, 1215ms total)
T3638 001:712 JLINK_WriteReg(MSP, 0x20000800)  returns 0x00 (0000ms, 1215ms total)
T3638 001:712 JLINK_WriteReg(PSP, 0x20000800)  returns 0x00 (0000ms, 1215ms total)
T3638 001:712 JLINK_WriteReg(CFBP, 0x00000000)  returns 0x00 (0000ms, 1215ms total)
T3638 001:712 JLINK_SetBPEx(Addr = 0x20000000, Type = 0xFFFFFFF2)  returns 0x00000007 (0001ms, 1216ms total)
T3638 001:713 JLINK_Go() (0008ms, 1224ms total)
T3638 001:721 JLINK_IsHalted() -- CPU_ReadMem(2 bytes @ 0x20000000)  returns TRUE (0012ms, 1236ms total)
T3638 001:733 JLINK_ReadReg(R15 (PC))  returns 0x20000000 (0001ms, 1225ms total)
T3638 001:734 JLINK_ClrBPEx(BPHandle = 0x00000007)  returns 0x00 (0000ms, 1225ms total)
T3638 001:734 JLINK_ReadReg(R0)  returns 0x00000000 (0000ms, 1225ms total)
T3638 001:790 JLINK_WriteMem(0x20000000, 0x0180 Bytes, ...) -- Data:  00 BE 0A E0 0D 78 2D 06 68 40 08 24 40 00 00 D3 ... -- CPU_WriteMem(384 bytes @ 0x20000000)  returns 0x180 (0008ms, 1233ms total)
T3638 001:798 JLINK_WriteReg(R0, 0x08000000)  returns 0x00 (0000ms, 1233ms total)
T3638 001:798 JLINK_WriteReg(R1, 0x0A037A00)  returns 0x00 (0000ms, 1233ms total)
T3638 001:798 JLINK_WriteReg(R2, 0x00000002)  returns 0x00 (0000ms, 1233ms total)
T3638 001:798 JLINK_WriteReg(R3, 0x00000000)  returns 0x00 (0000ms, 1233ms total)
T3638 001:798 JLINK_WriteReg(R4, 0x00000000)  returns 0x00 (0001ms, 1234ms total)
T3638 001:799 JLINK_WriteReg(R5, 0x00000000)  returns 0x00 (0000ms, 1234ms total)
T3638 001:799 JLINK_WriteReg(R6, 0x00000000)  returns 0x00 (0000ms, 1234ms total)
T3638 001:799 JLINK_WriteReg(R7, 0x00000000)  returns 0x00 (0000ms, 1234ms total)
T3638 001:799 JLINK_WriteReg(R8, 0x00000000)  returns 0x00 (0001ms, 1235ms total)
T3638 001:800 JLINK_WriteReg(R9, 0x2000017C)  returns 0x00 (0000ms, 1235ms total)
T3638 001:800 JLINK_WriteReg(R10, 0x00000000)  returns 0x00 (0000ms, 1235ms total)
T3638 001:800 JLINK_WriteReg(R11, 0x00000000)  returns 0x00 (0001ms, 1236ms total)
T3638 001:801 JLINK_WriteReg(R12, 0x00000000)  returns 0x00 (0000ms, 1236ms total)
T3638 001:801 JLINK_WriteReg(R13 (SP), 0x20000800)  returns 0x00 (0000ms, 1236ms total)
T3638 001:801 JLINK_WriteReg(R14, 0x20000001)  returns 0x00 (0000ms, 1236ms total)
T3638 001:801 JLINK_WriteReg(R15 (PC), 0x20000054)  returns 0x00 (0001ms, 1237ms total)
T3638 001:802 JLINK_WriteReg(XPSR, 0x01000000)  returns 0x00 (0000ms, 1237ms total)
T3638 001:802 JLINK_WriteReg(MSP, 0x20000800)  returns 0x00 (0000ms, 1237ms total)
T3638 001:802 JLINK_WriteReg(PSP, 0x20000800)  returns 0x00 (0000ms, 1237ms total)
T3638 001:802 JLINK_WriteReg(CFBP, 0x00000000)  returns 0x00 (0001ms, 1238ms total)
T3638 001:803 JLINK_SetBPEx(Addr = 0x20000000, Type = 0xFFFFFFF2) -- CPU_ReadMem(4 bytes @ 0x20000000) -- CPU_WriteMem(4 bytes @ 0x20000000) -- CPU_ReadMem(4 bytes @ 0x20000000) -- CPU_WriteMem(4 bytes @ 0x20000000) -- CPU_ReadMem(2 bytes @ 0x20000000)  returns 0x00000008 (0023ms, 1261ms total)
T3638 001:826 JLINK_Go() -- CPU_WriteMem(2 bytes @ 0x20000000) (0011ms, 1272ms total)
T3638 001:837 JLINK_IsHalted() -- CPU_ReadMem(2 bytes @ 0x20000000)  returns TRUE (0014ms, 1286ms total)
T3638 001:855 JLINK_ReadReg(R15 (PC))  returns 0x20000000 (0000ms, 1272ms total)
T3638 001:855 JLINK_ClrBPEx(BPHandle = 0x00000008)  returns 0x00 (0000ms, 1272ms total)
T3638 001:855 JLINK_ReadReg(R0)  returns 0x00000000 (0000ms, 1272ms total)
T3638 001:856 JLINK_WriteMem(0x20000180, 0x0400 Bytes, ...) -- Data:  C0 36 00 20 ED 92 01 08 CD 32 00 08 F7 92 01 08 ... -- CPU_WriteMem(1024 bytes @ 0x20000180)  returns 0x400 (0015ms, 1287ms total)
T3638 001:871 JLINK_WriteReg(R0, 0x08000000)  returns 0x00 (0000ms, 1287ms total)
T3638 001:871 JLINK_WriteReg(R1, 0x00000400)  returns 0x00 (0000ms, 1287ms total)
T3638 001:871 JLINK_WriteReg(R2, 0x20000180)  returns 0x00 (0000ms, 1287ms total)
T3638 001:871 JLINK_WriteReg(R3, 0x00000000)  returns 0x00 (0000ms, 1287ms total)
T3638 001:871 JLINK_WriteReg(R4, 0x00000000)  returns 0x00 (0001ms, 1288ms total)
T3638 001:872 JLINK_WriteReg(R5, 0x00000000)  returns 0x00 (0000ms, 1288ms total)
T3638 001:872 JLINK_WriteReg(R6, 0x00000000)  returns 0x00 (0000ms, 1288ms total)
T3638 001:872 JLINK_WriteReg(R7, 0x00000000)  returns 0x00 (0000ms, 1288ms total)
T3638 001:872 JLINK_WriteReg(R8, 0x00000000)  returns 0x00 (0001ms, 1289ms total)
T3638 001:873 JLINK_WriteReg(R9, 0x2000017C)  returns 0x00 (0000ms, 1289ms total)
T3638 001:873 JLINK_WriteReg(R10, 0x00000000)  returns 0x00 (0000ms, 1289ms total)
T3638 001:873 JLINK_WriteReg(R11, 0x00000000)  returns 0x00 (0000ms, 1289ms total)
T3638 001:874 JLINK_WriteReg(R12, 0x00000000)  returns 0x00 (0000ms, 1290ms total)
T3638 001:874 JLINK_WriteReg(R13 (SP), 0x20000800)  returns 0x00 (0000ms, 1290ms total)
T3638 001:874 JLINK_WriteReg(R14, 0x20000001)  returns 0x00 (0000ms, 1290ms total)
T3638 001:874 JLINK_WriteReg(R15 (PC), 0x20000108)  returns 0x00 (0000ms, 1290ms total)
T3638 001:874 JLINK_WriteReg(XPSR, 0x01000000)  returns 0x00 (0001ms, 1291ms total)
T3638 001:875 JLINK_WriteReg(MSP, 0x20000800)  returns 0x00 (0000ms, 1291ms total)
T3638 001:875 JLINK_WriteReg(PSP, 0x20000800)  returns 0x00 (0000ms, 1291ms total)
T3638 001:875 JLINK_WriteReg(CFBP, 0x00000000)  returns 0x00 (0000ms, 1291ms total)
T3638 001:875 JLINK_SetBPEx(Addr = 0x20000000, Type = 0xFFFFFFF2)  returns 0x00000009 (0000ms, 1291ms total)
T3638 001:875 JLINK_Go() (0009ms, 1300ms total)
T3638 001:884 JLINK_IsHalted()  returns FALSE (0004ms, 1304ms total)
T3638 001:893 JLINK_IsHalted() -- CPU_ReadMem(2 bytes @ 0x20000000)  returns TRUE (0013ms, 1313ms total)
T3638 001:906 JLINK_ReadReg(R15 (PC))  returns 0x20000000 (0000ms, 1300ms total)
T3638 001:906 JLINK_ClrBPEx(BPHandle = 0x00000009)  returns 0x00 (0000ms, 1300ms total)
T3638 001:906 JLINK_ReadReg(R0)  returns 0x00000000 (0000ms, 1300ms total)
T3638 001:908 JLINK_WriteMem(0x20000180, 0x0400 Bytes, ...) -- Data:  02 F0 96 FF 64 20 0C F0 69 F9 1E 48 0C F0 A2 F9 ... -- CPU_WriteMem(1024 bytes @ 0x20000180)  returns 0x400 (0014ms, 1314ms total)
T3638 001:922 JLINK_WriteReg(R0, 0x08000400)  returns 0x00 (0000ms, 1314ms total)
T3638 001:922 JLINK_WriteReg(R1, 0x00000400)  returns 0x00 (0000ms, 1314ms total)
T3638 001:922 JLINK_WriteReg(R2, 0x20000180)  returns 0x00 (0000ms, 1314ms total)
T3638 001:922 JLINK_WriteReg(R3, 0x00000000)  returns 0x00 (0000ms, 1314ms total)
T3638 001:922 JLINK_WriteReg(R4, 0x00000000)  returns 0x00 (0001ms, 1315ms total)
T3638 001:923 JLINK_WriteReg(R5, 0x00000000)  returns 0x00 (0000ms, 1315ms total)
T3638 001:923 JLINK_WriteReg(R6, 0x00000000)  returns 0x00 (0000ms, 1315ms total)
T3638 001:923 JLINK_WriteReg(R7, 0x00000000)  returns 0x00 (0001ms, 1316ms total)
T3638 001:924 JLINK_WriteReg(R8, 0x00000000)  returns 0x00 (0000ms, 1316ms total)
T3638 001:924 JLINK_WriteReg(R9, 0x2000017C)  returns 0x00 (0000ms, 1316ms total)
T3638 001:924 JLINK_WriteReg(R10, 0x00000000)  returns 0x00 (0000ms, 1316ms total)
T3638 001:924 JLINK_WriteReg(R11, 0x00000000)  returns 0x00 (0001ms, 1317ms total)
T3638 001:925 JLINK_WriteReg(R12, 0x00000000)  returns 0x00 (0000ms, 1317ms total)
T3638 001:925 JLINK_WriteReg(R13 (SP), 0x20000800)  returns 0x00 (0000ms, 1317ms total)
T3638 001:925 JLINK_WriteReg(R14, 0x20000001)  returns 0x00 (0000ms, 1317ms total)
T3638 001:925 JLINK_WriteReg(R15 (PC), 0x20000108)  returns 0x00 (0001ms, 1318ms total)
T3638 001:926 JLINK_WriteReg(XPSR, 0x01000000)  returns 0x00 (0000ms, 1318ms total)
T3638 001:926 JLINK_WriteReg(MSP, 0x20000800)  returns 0x00 (0000ms, 1318ms total)
T3638 001:926 JLINK_WriteReg(PSP, 0x20000800)  returns 0x00 (0000ms, 1318ms total)
T3638 001:927 JLINK_WriteReg(CFBP, 0x00000000)  returns 0x00 (0000ms, 1319ms total)
T3638 001:927 JLINK_SetBPEx(Addr = 0x20000000, Type = 0xFFFFFFF2)  returns 0x0000000A (0000ms, 1319ms total)
T3638 001:927 JLINK_Go() (0008ms, 1327ms total)
T3638 001:935 JLINK_IsHalted()  returns FALSE (0004ms, 1331ms total)
T3638 001:942 JLINK_IsHalted() -- CPU_ReadMem(2 bytes @ 0x20000000)  returns TRUE (0011ms, 1338ms total)
T3638 001:953 JLINK_ReadReg(R15 (PC))  returns 0x20000000 (0000ms, 1327ms total)
T3638 001:953 JLINK_ClrBPEx(BPHandle = 0x0000000A)  returns 0x00 (0001ms, 1328ms total)
T3638 001:954 JLINK_ReadReg(R0)  returns 0x00000000 (0000ms, 1328ms total)
T3638 001:954 JLINK_WriteMem(0x20000180, 0x0400 Bytes, ...) -- Data:  2A 1A 80 EE 81 0A 10 EE 10 0A C1 F8 CC 00 25 48 ... -- CPU_WriteMem(1024 bytes @ 0x20000180)  returns 0x400 (0015ms, 1343ms total)
T3638 001:969 JLINK_WriteReg(R0, 0x08000800)  returns 0x00 (0000ms, 1343ms total)
T3638 001:969 JLINK_WriteReg(R1, 0x00000400)  returns 0x00 (0000ms, 1343ms total)
T3638 001:969 JLINK_WriteReg(R2, 0x20000180)  returns 0x00 (0000ms, 1343ms total)
T3638 001:970 JLINK_WriteReg(R3, 0x00000000)  returns 0x00 (0000ms, 1344ms total)
T3638 001:970 JLINK_WriteReg(R4, 0x00000000)  returns 0x00 (0000ms, 1344ms total)
T3638 001:970 JLINK_WriteReg(R5, 0x00000000)  returns 0x00 (0000ms, 1344ms total)
T3638 001:970 JLINK_WriteReg(R6, 0x00000000)  returns 0x00 (0001ms, 1345ms total)
T3638 001:971 JLINK_WriteReg(R7, 0x00000000)  returns 0x00 (0000ms, 1345ms total)
T3638 001:971 JLINK_WriteReg(R8, 0x00000000)  returns 0x00 (0000ms, 1345ms total)
T3638 001:971 JLINK_WriteReg(R9, 0x2000017C)  returns 0x00 (0000ms, 1345ms total)
T3638 001:971 JLINK_WriteReg(R10, 0x00000000)  returns 0x00 (0001ms, 1346ms total)
T3638 001:972 JLINK_WriteReg(R11, 0x00000000)  returns 0x00 (0000ms, 1346ms total)
T3638 001:972 JLINK_WriteReg(R12, 0x00000000)  returns 0x00 (0000ms, 1346ms total)
T3638 001:972 JLINK_WriteReg(R13 (SP), 0x20000800)  returns 0x00 (0000ms, 1346ms total)
T3638 001:972 JLINK_WriteReg(R14, 0x20000001)  returns 0x00 (0001ms, 1347ms total)
T3638 001:973 JLINK_WriteReg(R15 (PC), 0x20000108)  returns 0x00 (0000ms, 1347ms total)
T3638 001:973 JLINK_WriteReg(XPSR, 0x01000000)  returns 0x00 (0000ms, 1347ms total)
T3638 001:973 JLINK_WriteReg(MSP, 0x20000800)  returns 0x00 (0001ms, 1348ms total)
T3638 001:974 JLINK_WriteReg(PSP, 0x20000800)  returns 0x00 (0000ms, 1348ms total)
T3638 001:974 JLINK_WriteReg(CFBP, 0x00000000)  returns 0x00 (0000ms, 1348ms total)
T3638 001:974 JLINK_SetBPEx(Addr = 0x20000000, Type = 0xFFFFFFF2)  returns 0x0000000B (0000ms, 1348ms total)
T3638 001:974 JLINK_Go() (0010ms, 1358ms total)
T3638 001:984 JLINK_IsHalted() -- CPU_ReadMem(2 bytes @ 0x20000000)  returns TRUE (0015ms, 1373ms total)
T3638 001:999 JLINK_ReadReg(R15 (PC))  returns 0x20000000 (0000ms, 1358ms total)
T3638 001:999 JLINK_ClrBPEx(BPHandle = 0x0000000B)  returns 0x00 (0000ms, 1358ms total)
T3638 001:999 JLINK_ReadReg(R0)  returns 0x00000000 (0001ms, 1359ms total)
T3638 002:000 JLINK_WriteMem(0x20000180, 0x0400 Bytes, ...) -- Data:  05 00 01 20 8D F8 06 00 00 20 8D F8 07 00 11 20 ... -- CPU_WriteMem(1024 bytes @ 0x20000180)  returns 0x400 (0015ms, 1374ms total)
T3638 002:015 JLINK_WriteReg(R0, 0x08000C00)  returns 0x00 (0000ms, 1374ms total)
T3638 002:015 JLINK_WriteReg(R1, 0x00000400)  returns 0x00 (0000ms, 1374ms total)
T3638 002:015 JLINK_WriteReg(R2, 0x20000180)  returns 0x00 (0000ms, 1374ms total)
T3638 002:015 JLINK_WriteReg(R3, 0x00000000)  returns 0x00 (0000ms, 1374ms total)
T3638 002:015 JLINK_WriteReg(R4, 0x00000000)  returns 0x00 (0000ms, 1374ms total)
T3638 002:016 JLINK_WriteReg(R5, 0x00000000)  returns 0x00 (0000ms, 1375ms total)
T3638 002:016 JLINK_WriteReg(R6, 0x00000000)  returns 0x00 (0000ms, 1375ms total)
T3638 002:016 JLINK_WriteReg(R7, 0x00000000)  returns 0x00 (0000ms, 1375ms total)
T3638 002:016 JLINK_WriteReg(R8, 0x00000000)  returns 0x00 (0001ms, 1376ms total)
T3638 002:017 JLINK_WriteReg(R9, 0x2000017C)  returns 0x00 (0000ms, 1376ms total)
T3638 002:017 JLINK_WriteReg(R10, 0x00000000)  returns 0x00 (0000ms, 1376ms total)
T3638 002:017 JLINK_WriteReg(R11, 0x00000000)  returns 0x00 (0000ms, 1376ms total)
T3638 002:017 JLINK_WriteReg(R12, 0x00000000)  returns 0x00 (0001ms, 1377ms total)
T3638 002:018 JLINK_WriteReg(R13 (SP), 0x20000800)  returns 0x00 (0000ms, 1377ms total)
T3638 002:018 JLINK_WriteReg(R14, 0x20000001)  returns 0x00 (0000ms, 1377ms total)
T3638 002:018 JLINK_WriteReg(R15 (PC), 0x20000108)  returns 0x00 (0000ms, 1377ms total)
T3638 002:018 JLINK_WriteReg(XPSR, 0x01000000)  returns 0x00 (0000ms, 1377ms total)
T3638 002:019 JLINK_WriteReg(MSP, 0x20000800)  returns 0x00 (0000ms, 1378ms total)
T3638 002:019 JLINK_WriteReg(PSP, 0x20000800)  returns 0x00 (0000ms, 1378ms total)
T3638 002:019 JLINK_WriteReg(CFBP, 0x00000000)  returns 0x00 (0000ms, 1378ms total)
T3638 002:019 JLINK_SetBPEx(Addr = 0x20000000, Type = 0xFFFFFFF2)  returns 0x0000000C (0000ms, 1378ms total)
T3638 002:019 JLINK_Go() (0008ms, 1386ms total)
T3638 002:027 JLINK_IsHalted()  returns FALSE (0005ms, 1391ms total)
T3638 002:037 JLINK_IsHalted() -- CPU_ReadMem(2 bytes @ 0x20000000)  returns TRUE (0016ms, 1402ms total)
T3638 002:053 JLINK_ReadReg(R15 (PC))  returns 0x20000000 (0000ms, 1386ms total)
T3638 002:053 JLINK_ClrBPEx(BPHandle = 0x0000000C)  returns 0x00 (0000ms, 1386ms total)
T3638 002:053 JLINK_ReadReg(R0)  returns 0x00000000 (0000ms, 1386ms total)
T3638 002:053 JLINK_WriteMem(0x20000180, 0x0400 Bytes, ...) -- Data:  61 1C CC B2 38 49 0A 54 60 1F 08 71 00 25 00 20 ... -- CPU_WriteMem(1024 bytes @ 0x20000180)  returns 0x400 (0015ms, 1401ms total)
T3638 002:068 JLINK_WriteReg(R0, 0x08001000)  returns 0x00 (0000ms, 1401ms total)
T3638 002:068 JLINK_WriteReg(R1, 0x00000400)  returns 0x00 (0000ms, 1401ms total)
T3638 002:068 JLINK_WriteReg(R2, 0x20000180)  returns 0x00 (0000ms, 1401ms total)
T3638 002:068 JLINK_WriteReg(R3, 0x00000000)  returns 0x00 (0000ms, 1401ms total)
T3638 002:069 JLINK_WriteReg(R4, 0x00000000)  returns 0x00 (0000ms, 1402ms total)
T3638 002:069 JLINK_WriteReg(R5, 0x00000000)  returns 0x00 (0000ms, 1402ms total)
T3638 002:069 JLINK_WriteReg(R6, 0x00000000)  returns 0x00 (0000ms, 1402ms total)
T3638 002:069 JLINK_WriteReg(R7, 0x00000000)  returns 0x00 (0001ms, 1403ms total)
T3638 002:070 JLINK_WriteReg(R8, 0x00000000)  returns 0x00 (0000ms, 1403ms total)
T3638 002:070 JLINK_WriteReg(R9, 0x2000017C)  returns 0x00 (0000ms, 1403ms total)
T3638 002:070 JLINK_WriteReg(R10, 0x00000000)  returns 0x00 (0000ms, 1403ms total)
T3638 002:071 JLINK_WriteReg(R11, 0x00000000)  returns 0x00 (0000ms, 1404ms total)
T3638 002:071 JLINK_WriteReg(R12, 0x00000000)  returns 0x00 (0000ms, 1404ms total)
T3638 002:071 JLINK_WriteReg(R13 (SP), 0x20000800)  returns 0x00 (0000ms, 1404ms total)
T3638 002:071 JLINK_WriteReg(R14, 0x20000001)  returns 0x00 (0001ms, 1405ms total)
T3638 002:072 JLINK_WriteReg(R15 (PC), 0x20000108)  returns 0x00 (0000ms, 1405ms total)
T3638 002:072 JLINK_WriteReg(XPSR, 0x01000000)  returns 0x00 (0000ms, 1405ms total)
T3638 002:072 JLINK_WriteReg(MSP, 0x20000800)  returns 0x00 (0001ms, 1406ms total)
T3638 002:073 JLINK_WriteReg(PSP, 0x20000800)  returns 0x00 (0000ms, 1406ms total)
T3638 002:073 JLINK_WriteReg(CFBP, 0x00000000)  returns 0x00 (0000ms, 1406ms total)
T3638 002:073 JLINK_SetBPEx(Addr = 0x20000000, Type = 0xFFFFFFF2)  returns 0x0000000D (0000ms, 1406ms total)
T3638 002:073 JLINK_Go() (0011ms, 1417ms total)
T3638 002:084 JLINK_IsHalted() -- CPU_ReadMem(2 bytes @ 0x20000000)  returns TRUE (0014ms, 1431ms total)
T3638 002:098 JLINK_ReadReg(R15 (PC))  returns 0x20000000 (0000ms, 1417ms total)
T3638 002:098 JLINK_ClrBPEx(BPHandle = 0x0000000D)  returns 0x00 (0000ms, 1417ms total)
T3638 002:098 JLINK_ReadReg(R0)  returns 0x00000000 (0000ms, 1417ms total)
T3638 002:100 JLINK_WriteMem(0x20000180, 0x0400 Bytes, ...) -- Data:  0A 54 60 1F 08 71 00 25 00 20 05 E0 39 49 09 5C ... -- CPU_WriteMem(1024 bytes @ 0x20000180)  returns 0x400 (0014ms, 1431ms total)
T3638 002:114 JLINK_WriteReg(R0, 0x08001400)  returns 0x00 (0000ms, 1431ms total)
T3638 002:114 JLINK_WriteReg(R1, 0x00000400)  returns 0x00 (0000ms, 1431ms total)
T3638 002:114 JLINK_WriteReg(R2, 0x20000180)  returns 0x00 (0000ms, 1431ms total)
T3638 002:114 JLINK_WriteReg(R3, 0x00000000)  returns 0x00 (0000ms, 1431ms total)
T3638 002:114 JLINK_WriteReg(R4, 0x00000000)  returns 0x00 (0000ms, 1431ms total)
T3638 002:114 JLINK_WriteReg(R5, 0x00000000)  returns 0x00 (0001ms, 1432ms total)
T3638 002:115 JLINK_WriteReg(R6, 0x00000000)  returns 0x00 (0000ms, 1432ms total)
T3638 002:115 JLINK_WriteReg(R7, 0x00000000)  returns 0x00 (0000ms, 1432ms total)
T3638 002:115 JLINK_WriteReg(R8, 0x00000000)  returns 0x00 (0000ms, 1432ms total)
T3638 002:116 JLINK_WriteReg(R9, 0x2000017C)  returns 0x00 (0000ms, 1432ms total)
T3638 002:116 JLINK_WriteReg(R10, 0x00000000)  returns 0x00 (0000ms, 1432ms total)
T3638 002:116 JLINK_WriteReg(R11, 0x00000000)  returns 0x00 (0000ms, 1432ms total)
T3638 002:116 JLINK_WriteReg(R12, 0x00000000)  returns 0x00 (0000ms, 1432ms total)
T3638 002:117 JLINK_WriteReg(R13 (SP), 0x20000800)  returns 0x00 (0000ms, 1433ms total)
T3638 002:117 JLINK_WriteReg(R14, 0x20000001)  returns 0x00 (0000ms, 1433ms total)
T3638 002:117 JLINK_WriteReg(R15 (PC), 0x20000108)  returns 0x00 (0000ms, 1433ms total)
T3638 002:117 JLINK_WriteReg(XPSR, 0x01000000)  returns 0x00 (0001ms, 1434ms total)
T3638 002:118 JLINK_WriteReg(MSP, 0x20000800)  returns 0x00 (0000ms, 1434ms total)
T3638 002:118 JLINK_WriteReg(PSP, 0x20000800)  returns 0x00 (0000ms, 1434ms total)
T3638 002:118 JLINK_WriteReg(CFBP, 0x00000000)  returns 0x00 (0000ms, 1434ms total)
T3638 002:118 JLINK_SetBPEx(Addr = 0x20000000, Type = 0xFFFFFFF2)  returns 0x0000000E (0000ms, 1434ms total)
T3638 002:119 JLINK_Go() (0008ms, 1443ms total)
T3638 002:127 JLINK_IsHalted()  returns FALSE (0005ms, 1448ms total)
T3638 002:136 JLINK_IsHalted() -- CPU_ReadMem(2 bytes @ 0x20000000)  returns TRUE (0013ms, 1456ms total)
T3638 002:149 JLINK_ReadReg(R15 (PC))  returns 0x20000000 (0004ms, 1447ms total)
T3638 002:153 JLINK_ClrBPEx(BPHandle = 0x0000000E)  returns 0x00 (0000ms, 1447ms total)
T3638 002:153 JLINK_ReadReg(R0)  returns 0x00000000 (0000ms, 1447ms total)
T3638 002:154 JLINK_WriteMem(0x20000180, 0x0400 Bytes, ...) -- Data:  61 1C CC B2 3D 49 0D 54 21 46 3C 48 FE F7 46 FE ... -- CPU_WriteMem(1024 bytes @ 0x20000180)  returns 0x400 (0015ms, 1462ms total)
T3638 002:169 JLINK_WriteReg(R0, 0x08001800)  returns 0x00 (0000ms, 1462ms total)
T3638 002:169 JLINK_WriteReg(R1, 0x00000400)  returns 0x00 (0000ms, 1462ms total)
T3638 002:169 JLINK_WriteReg(R2, 0x20000180)  returns 0x00 (0000ms, 1462ms total)
T3638 002:169 JLINK_WriteReg(R3, 0x00000000)  returns 0x00 (0000ms, 1462ms total)
T3638 002:169 JLINK_WriteReg(R4, 0x00000000)  returns 0x00 (0001ms, 1463ms total)
T3638 002:170 JLINK_WriteReg(R5, 0x00000000)  returns 0x00 (0000ms, 1463ms total)
T3638 002:170 JLINK_WriteReg(R6, 0x00000000)  returns 0x00 (0000ms, 1463ms total)
T3638 002:170 JLINK_WriteReg(R7, 0x00000000)  returns 0x00 (0001ms, 1464ms total)
T3638 002:171 JLINK_WriteReg(R8, 0x00000000)  returns 0x00 (0000ms, 1464ms total)
T3638 002:171 JLINK_WriteReg(R9, 0x2000017C)  returns 0x00 (0000ms, 1464ms total)
T3638 002:171 JLINK_WriteReg(R10, 0x00000000)  returns 0x00 (0000ms, 1464ms total)
T3638 002:171 JLINK_WriteReg(R11, 0x00000000)  returns 0x00 (0001ms, 1465ms total)
T3638 002:172 JLINK_WriteReg(R12, 0x00000000)  returns 0x00 (0000ms, 1465ms total)
T3638 002:172 JLINK_WriteReg(R13 (SP), 0x20000800)  returns 0x00 (0000ms, 1465ms total)
T3638 002:172 JLINK_WriteReg(R14, 0x20000001)  returns 0x00 (0000ms, 1465ms total)
T3638 002:172 JLINK_WriteReg(R15 (PC), 0x20000108)  returns 0x00 (0000ms, 1465ms total)
T3638 002:173 JLINK_WriteReg(XPSR, 0x01000000)  returns 0x00 (0000ms, 1466ms total)
T3638 002:173 JLINK_WriteReg(MSP, 0x20000800)  returns 0x00 (0000ms, 1466ms total)
T3638 002:173 JLINK_WriteReg(PSP, 0x20000800)  returns 0x00 (0000ms, 1466ms total)
T3638 002:173 JLINK_WriteReg(CFBP, 0x00000000)  returns 0x00 (0001ms, 1467ms total)
T3638 002:174 JLINK_SetBPEx(Addr = 0x20000000, Type = 0xFFFFFFF2)  returns 0x0000000F (0000ms, 1467ms total)
T3638 002:174 JLINK_Go() (0011ms, 1478ms total)
T3638 002:185 JLINK_IsHalted() -- CPU_ReadMem(2 bytes @ 0x20000000)  returns TRUE (0015ms, 1493ms total)
T3638 002:200 JLINK_ReadReg(R15 (PC))  returns 0x20000000 (0000ms, 1478ms total)
T3638 002:200 JLINK_ClrBPEx(BPHandle = 0x0000000F)  returns 0x00 (0000ms, 1478ms total)
T3638 002:200 JLINK_ReadReg(R0)  returns 0x00000000 (0001ms, 1479ms total)
T3638 002:201 JLINK_WriteMem(0x20000180, 0x0400 Bytes, ...) -- Data:  20 0A BD EE C0 0A 45 48 80 ED 18 0A 41 48 D0 F8 ... -- CPU_WriteMem(1024 bytes @ 0x20000180)  returns 0x400 (0016ms, 1495ms total)
T3638 002:217 JLINK_WriteReg(R0, 0x08001C00)  returns 0x00 (0000ms, 1495ms total)
T3638 002:217 JLINK_WriteReg(R1, 0x00000400)  returns 0x00 (0000ms, 1495ms total)
T3638 002:217 JLINK_WriteReg(R2, 0x20000180)  returns 0x00 (0000ms, 1495ms total)
T3638 002:218 JLINK_WriteReg(R3, 0x00000000)  returns 0x00 (0000ms, 1495ms total)
T3638 002:218 JLINK_WriteReg(R4, 0x00000000)  returns 0x00 (0000ms, 1495ms total)
T3638 002:218 JLINK_WriteReg(R5, 0x00000000)  returns 0x00 (0000ms, 1495ms total)
T3638 002:218 JLINK_WriteReg(R6, 0x00000000)  returns 0x00 (0001ms, 1496ms total)
T3638 002:219 JLINK_WriteReg(R7, 0x00000000)  returns 0x00 (0000ms, 1496ms total)
T3638 002:219 JLINK_WriteReg(R8, 0x00000000)  returns 0x00 (0000ms, 1496ms total)
T3638 002:219 JLINK_WriteReg(R9, 0x2000017C)  returns 0x00 (0000ms, 1496ms total)
T3638 002:219 JLINK_WriteReg(R10, 0x00000000)  returns 0x00 (0000ms, 1496ms total)
T3638 002:219 JLINK_WriteReg(R11, 0x00000000)  returns 0x00 (0001ms, 1497ms total)
T3638 002:220 JLINK_WriteReg(R12, 0x00000000)  returns 0x00 (0000ms, 1497ms total)
T3638 002:220 JLINK_WriteReg(R13 (SP), 0x20000800)  returns 0x00 (0000ms, 1497ms total)
T3638 002:220 JLINK_WriteReg(R14, 0x20000001)  returns 0x00 (0000ms, 1497ms total)
T3638 002:220 JLINK_WriteReg(R15 (PC), 0x20000108)  returns 0x00 (0001ms, 1498ms total)
T3638 002:221 JLINK_WriteReg(XPSR, 0x01000000)  returns 0x00 (0000ms, 1498ms total)
T3638 002:221 JLINK_WriteReg(MSP, 0x20000800)  returns 0x00 (0000ms, 1498ms total)
T3638 002:221 JLINK_WriteReg(PSP, 0x20000800)  returns 0x00 (0000ms, 1498ms total)
T3638 002:221 JLINK_WriteReg(CFBP, 0x00000000)  returns 0x00 (0000ms, 1498ms total)
T3638 002:221 JLINK_SetBPEx(Addr = 0x20000000, Type = 0xFFFFFFF2)  returns 0x00000010 (0001ms, 1499ms total)
T3638 002:222 JLINK_Go() (0010ms, 1509ms total)
T3638 002:232 JLINK_IsHalted() -- CPU_ReadMem(2 bytes @ 0x20000000)  returns TRUE (0016ms, 1525ms total)
T3638 002:248 JLINK_ReadReg(R15 (PC))  returns 0x20000000 (0000ms, 1509ms total)
T3638 002:248 JLINK_ClrBPEx(BPHandle = 0x00000010)  returns 0x00 (0000ms, 1509ms total)
T3638 002:248 JLINK_ReadReg(R0)  returns 0x00000000 (0000ms, 1509ms total)
T3638 002:248 JLINK_WriteMem(0x20000180, 0x0400 Bytes, ...) -- Data:  4D FA 7F BD 30 B5 8B B0 4B 48 00 88 4B 49 09 88 ... -- CPU_WriteMem(1024 bytes @ 0x20000180)  returns 0x400 (0015ms, 1524ms total)
T3638 002:263 JLINK_WriteReg(R0, 0x08002000)  returns 0x00 (0000ms, 1524ms total)
T3638 002:263 JLINK_WriteReg(R1, 0x00000400)  returns 0x00 (0000ms, 1524ms total)
T3638 002:263 JLINK_WriteReg(R2, 0x20000180)  returns 0x00 (0001ms, 1525ms total)
T3638 002:264 JLINK_WriteReg(R3, 0x00000000)  returns 0x00 (0000ms, 1525ms total)
T3638 002:264 JLINK_WriteReg(R4, 0x00000000)  returns 0x00 (0000ms, 1525ms total)
T3638 002:264 JLINK_WriteReg(R5, 0x00000000)  returns 0x00 (0000ms, 1525ms total)
T3638 002:264 JLINK_WriteReg(R6, 0x00000000)  returns 0x00 (0001ms, 1526ms total)
T3638 002:265 JLINK_WriteReg(R7, 0x00000000)  returns 0x00 (0000ms, 1526ms total)
T3638 002:265 JLINK_WriteReg(R8, 0x00000000)  returns 0x00 (0000ms, 1526ms total)
T3638 002:265 JLINK_WriteReg(R9, 0x2000017C)  returns 0x00 (0001ms, 1527ms total)
T3638 002:266 JLINK_WriteReg(R10, 0x00000000)  returns 0x00 (0000ms, 1527ms total)
T3638 002:266 JLINK_WriteReg(R11, 0x00000000)  returns 0x00 (0000ms, 1527ms total)
T3638 002:266 JLINK_WriteReg(R12, 0x00000000)  returns 0x00 (0000ms, 1527ms total)
T3638 002:266 JLINK_WriteReg(R13 (SP), 0x20000800)  returns 0x00 (0001ms, 1528ms total)
T3638 002:267 JLINK_WriteReg(R14, 0x20000001)  returns 0x00 (0000ms, 1528ms total)
T3638 002:267 JLINK_WriteReg(R15 (PC), 0x20000108)  returns 0x00 (0000ms, 1528ms total)
T3638 002:267 JLINK_WriteReg(XPSR, 0x01000000)  returns 0x00 (0000ms, 1528ms total)
T3638 002:267 JLINK_WriteReg(MSP, 0x20000800)  returns 0x00 (0001ms, 1529ms total)
T3638 002:268 JLINK_WriteReg(PSP, 0x20000800)  returns 0x00 (0000ms, 1529ms total)
T3638 002:268 JLINK_WriteReg(CFBP, 0x00000000)  returns 0x00 (0000ms, 1529ms total)
T3638 002:268 JLINK_SetBPEx(Addr = 0x20000000, Type = 0xFFFFFFF2)  returns 0x00000011 (0000ms, 1529ms total)
T3638 002:268 JLINK_Go() (0009ms, 1538ms total)
T3638 002:277 JLINK_IsHalted()  returns FALSE (0005ms, 1543ms total)
T3638 002:285 JLINK_IsHalted() -- CPU_ReadMem(2 bytes @ 0x20000000)  returns TRUE (0014ms, 1552ms total)
T3638 002:299 JLINK_ReadReg(R15 (PC))  returns 0x20000000 (0000ms, 1538ms total)
T3638 002:299 JLINK_ClrBPEx(BPHandle = 0x00000011)  returns 0x00 (0000ms, 1538ms total)
T3638 002:299 JLINK_ReadReg(R0)  returns 0x00000000 (0001ms, 1539ms total)
T3638 002:300 JLINK_WriteMem(0x20000180, 0x0400 Bytes, ...) -- Data:  FE F7 19 FE 72 E0 56 48 40 7A A8 B1 00 20 54 49 ... -- CPU_WriteMem(1024 bytes @ 0x20000180)  returns 0x400 (0015ms, 1554ms total)
T3638 002:315 JLINK_WriteReg(R0, 0x08002400)  returns 0x00 (0000ms, 1554ms total)
T3638 002:315 JLINK_WriteReg(R1, 0x00000400)  returns 0x00 (0000ms, 1554ms total)
T3638 002:315 JLINK_WriteReg(R2, 0x20000180)  returns 0x00 (0000ms, 1554ms total)
T3638 002:315 JLINK_WriteReg(R3, 0x00000000)  returns 0x00 (0000ms, 1554ms total)
T3638 002:315 JLINK_WriteReg(R4, 0x00000000)  returns 0x00 (0000ms, 1554ms total)
T3638 002:316 JLINK_WriteReg(R5, 0x00000000)  returns 0x00 (0000ms, 1555ms total)
T3638 002:316 JLINK_WriteReg(R6, 0x00000000)  returns 0x00 (0000ms, 1555ms total)
T3638 002:316 JLINK_WriteReg(R7, 0x00000000)  returns 0x00 (0000ms, 1555ms total)
T3638 002:316 JLINK_WriteReg(R8, 0x00000000)  returns 0x00 (0001ms, 1556ms total)
T3638 002:317 JLINK_WriteReg(R9, 0x2000017C)  returns 0x00 (0000ms, 1556ms total)
T3638 002:317 JLINK_WriteReg(R10, 0x00000000)  returns 0x00 (0000ms, 1556ms total)
T3638 002:317 JLINK_WriteReg(R11, 0x00000000)  returns 0x00 (0001ms, 1557ms total)
T3638 002:318 JLINK_WriteReg(R12, 0x00000000)  returns 0x00 (0000ms, 1557ms total)
T3638 002:318 JLINK_WriteReg(R13 (SP), 0x20000800)  returns 0x00 (0000ms, 1557ms total)
T3638 002:318 JLINK_WriteReg(R14, 0x20000001)  returns 0x00 (0000ms, 1557ms total)
T3638 002:318 JLINK_WriteReg(R15 (PC), 0x20000108)  returns 0x00 (0001ms, 1558ms total)
T3638 002:319 JLINK_WriteReg(XPSR, 0x01000000)  returns 0x00 (0000ms, 1558ms total)
T3638 002:319 JLINK_WriteReg(MSP, 0x20000800)  returns 0x00 (0000ms, 1558ms total)
T3638 002:319 JLINK_WriteReg(PSP, 0x20000800)  returns 0x00 (0000ms, 1558ms total)
T3638 002:319 JLINK_WriteReg(CFBP, 0x00000000)  returns 0x00 (0001ms, 1559ms total)
T3638 002:320 JLINK_SetBPEx(Addr = 0x20000000, Type = 0xFFFFFFF2)  returns 0x00000012 (0000ms, 1559ms total)
T3638 002:320 JLINK_Go() (0010ms, 1569ms total)
T3638 002:330 JLINK_IsHalted() -- CPU_ReadMem(2 bytes @ 0x20000000)  returns TRUE (0016ms, 1585ms total)
T3638 002:346 JLINK_ReadReg(R15 (PC))  returns 0x20000000 (0000ms, 1569ms total)
T3638 002:346 JLINK_ClrBPEx(BPHandle = 0x00000012)  returns 0x00 (0000ms, 1569ms total)
